Time [s],Channel 0,Channel 1
3.125256252,1,1
3.374370958,0,1
3.374376042,0,0
3.374380958,1,0
3.374385417,1,1
3.374390333,1,0
3.374395458,1,1
3.374400375,1,0
3.374405500,1,1
3.374410458,1,0
3.374410792,0,0
3.374415542,0,1
3.374420500,0,0
3.374421000,1,0
3.374425583,1,1
3.374430542,1,0
3.374435625,1,1
3.374440583,1,0
3.374440958,0,0
3.374445708,0,1
3.374450625,0,0
3.374455750,0,1
3.374460667,0,0
3.374465792,0,1
3.374470708,0,0
3.374471042,1,0
3.374481042,1,1
3.374486000,1,0
3.374491083,1,1
3.374496042,1,0
3.374501125,1,1
3.374506083,1,0
3.374511167,1,1
3.374516125,1,0
3.374521208,1,1
3.374526167,1,0
3.374526542,0,0
3.374531292,0,1
3.374536208,0,0
3.374536750,1,0
3.374541333,1,1
3.374546250,1,0
3.374546625,0,0
3.374551375,0,1
3.374556292,0,0
3.374561417,0,1
3.374566375,0,0
3.374566667,1,0
3.374571125,0,0
3.374575792,0,1
3.374581542,1,1
3.374601583,0,1
3.374606667,0,0
3.374611625,1,0
3.374616083,1,1
3.374621042,1,0
3.374626167,1,1
3.374631083,1,0
3.374636208,1,1
3.374641125,1,0
3.374641500,0,0
3.374646250,0,1
3.374651208,0,0
3.374651708,1,0
3.374656292,1,1
3.374661250,1,0
3.374666333,1,1
3.374671292,1,0
3.374671667,0,0
3.374676375,0,1
3.374681333,0,0
3.374681833,1,0
3.374686417,1,1
3.374691375,1,0
3.374691542,0,0
3.374696500,0,1
3.374701417,0,0
3.374701750,1,0
3.374710625,1,1
3.374715542,1,0
3.374715708,0,0
3.374720667,0,1
3.374725583,0,0
3.374730708,0,1
3.374735667,0,0
3.374740750,0,1
3.374745708,0,0
3.374750792,0,1
3.374755750,0,0
3.374760833,0,1
3.374765792,0,0
3.374770917,0,1
3.374775833,0,0
3.374780958,0,1
3.374785875,0,0
3.374786208,1,0
3.374786250,0,0
3.374791000,0,1
3.374795917,0,0
3.374796417,1,0
3.374806250,1,1
3.374811167,1,0
3.374811333,0,0
3.374816292,0,1
3.374821250,0,0
3.374821542,1,0
3.374826333,1,1
3.374831292,1,0
3.374831417,0,0
3.374836375,0,1
3.374841333,0,0
3.374846417,0,1
3.374851375,0,0
3.374851708,1,0
3.374856500,1,1
3.374861417,1,0
3.374861583,0,0
3.374866542,0,1
3.374871458,0,0
3.374871792,1,0
3.374876583,1,1
3.374881500,1,0
3.374881875,0,0
3.374886625,0,1
3.374891583,0,0
3.374901958,0,1
3.374906875,0,0
3.374912000,0,1
3.374916917,0,0
3.374922042,0,1
3.374926958,0,0
3.374932083,0,1
3.374937042,0,0
3.374942125,0,1
3.374947083,0,0
3.374952167,0,1
3.374957125,0,0
3.374962208,0,1
3.374967167,0,0
3.374972250,0,1
3.374977208,0,0
3.374977542,1,0
3.374982333,1,1
3.374987250,1,0
3.374993208,0,0
3.374997875,0,1
3.375003667,1,1
3.375591333,0,1
3.375596417,0,0
3.375601375,1,0
3.375605833,1,1
3.375610792,1,0
3.375615917,1,1
3.375620833,1,0
3.375625958,1,1
3.375630875,1,0
3.375631250,0,0
3.375636000,0,1
3.375640917,0,0
3.375641458,1,0
3.375646042,1,1
3.375651000,1,0
3.375656083,1,1
3.375661042,1,0
3.375661417,0,0
3.375666125,0,1
3.375671083,0,0
3.375676167,0,1
3.375681125,0,0
3.375686250,0,1
3.375691167,0,0
3.375691500,1,0
3.375701500,1,1
3.375706417,1,0
3.375711542,1,1
3.375716458,1,0
3.375721583,1,1
3.375726542,1,0
3.375731625,1,1
3.375736583,1,0
3.375736958,0,0
3.375741667,0,1
3.375746625,0,0
3.375747125,1,0
3.375751708,1,1
3.375756667,1,0
3.375761750,1,1
3.375766708,1,0
3.375771833,1,1
3.375776750,1,0
3.375776917,0,0
3.375781875,0,1
3.375786792,0,0
3.375787125,1,0
3.375791583,0,0
3.375796250,0,1
3.375802000,1,1
3.375822042,0,1
3.375827125,0,0
3.375832042,1,0
3.375836500,1,1
3.375841417,1,0
3.375846542,1,1
3.375851500,1,0
3.375856583,1,1
3.375861542,1,0
3.375861917,0,0
3.375866625,0,1
3.375871583,0,0
3.375872083,1,0
3.375876667,1,1
3.375881625,1,0
3.375886708,1,1
3.375891667,1,0
3.375892042,0,0
3.375896792,0,1
3.375901708,0,0
3.375902208,1,0
3.375906833,1,1
3.375911750,1,0
3.375911917,0,0
3.375916875,0,1
3.375921792,0,0
3.375922125,1,0
3.375931042,1,1
3.375936000,1,0
3.375941083,1,1
3.375946042,1,0
3.375951167,1,1
3.375956083,1,0
3.375961208,1,1
3.375966125,1,0
3.375971250,1,1
3.375976167,1,0
3.375981292,1,1
3.375986250,1,0
3.375991333,1,1
3.375996292,1,0
3.376001375,1,1
3.376006333,1,0
3.376006708,0,0
3.376011417,0,1
3.376016375,0,0
3.376016875,1,0
3.376026667,1,1
3.376031625,1,0
3.376036750,1,1
3.376041667,1,0
3.376046792,1,1
3.376051708,1,0
3.376056833,1,1
3.376061792,1,0
3.376066875,1,1
3.376071833,1,0
3.376076917,1,1
3.376081875,1,0
3.376086958,1,1
3.376091917,1,0
3.376097000,1,1
3.376101958,1,0
3.376102333,0,0
3.376107083,0,1
3.376112000,0,0
3.376112500,1,0
3.376122458,1,1
3.376127375,1,0
3.376127542,0,0
3.376132500,0,1
3.376137458,0,0
3.376142542,0,1
3.376147500,0,0
3.376152583,0,1
3.376157542,0,0
3.376162625,0,1
3.376167583,0,0
3.376172708,0,1
3.376177625,0,0
3.376182708,0,1
3.376187667,0,0
3.376192792,0,1
3.376197708,0,0
3.376198042,1,0
3.376202833,1,1
3.376207750,1,0
3.376213708,0,0
3.376218417,0,1
3.376224167,1,1
3.376259250,0,1
3.376264333,0,0
3.376269292,1,0
3.376273792,1,1
3.376278708,1,0
3.376283833,1,1
3.376288750,1,0
3.376293875,1,1
3.376298833,1,0
3.376299167,0,0
3.376303917,0,1
3.376308875,0,0
3.376309375,1,0
3.376313958,1,1
3.376318917,1,0
3.376324000,1,1
3.376328958,1,0
3.376329333,0,0
3.376334083,0,1
3.376339000,0,0
3.376344125,0,1
3.376349042,0,0
3.376354167,0,1
3.376359083,0,0
3.376359417,1,0
3.376369417,1,1
3.376374375,1,0
3.376379458,1,1
3.376384417,1,0
3.376389500,1,1
3.376394458,1,0
3.376399542,1,1
3.376404500,1,0
3.376409583,1,1
3.376414542,1,0
3.376414917,0,0
3.376419667,0,1
3.376424583,0,0
3.376425125,1,0
3.376429708,1,1
3.376434625,1,0
3.376435000,0,0
3.376439750,0,1
3.376444667,0,0
3.376449792,0,1
3.376454750,0,0
3.376455042,1,0
3.376459542,0,0
3.376464250,0,1
3.376470000,1,1
3.376490000,0,1
3.376495125,0,0
3.376500083,1,0
3.376504542,1,1
3.376509500,1,0
3.376514583,1,1
3.376519542,1,0
3.376524625,1,1
3.376529583,1,0
3.376529958,0,0
3.376534667,0,1
3.376539625,0,0
3.376540125,1,0
3.376544750,1,1
3.376549667,1,0
3.376554792,1,1
3.376559708,1,0
3.376560083,0,0
3.376564833,0,1
3.376569750,0,0
3.376570292,1,0
3.376574875,1,1
3.376579833,1,0
3.376579958,0,0
3.376584917,0,1
3.376589875,0,0
3.376590208,1,0
3.376599042,1,1
3.376604000,1,0
3.376604125,0,0
3.376609083,0,1
3.376614042,0,0
3.376619125,0,1
3.376624083,0,0
3.376629208,0,1
3.376634125,0,0
3.376639250,0,1
3.376644167,0,0
3.376649292,0,1
3.376654208,0,0
3.376659333,0,1
3.376664292,0,0
3.376669375,0,1
3.376674333,0,0
3.376674625,1,0
3.376674667,0,0
3.376679417,0,1
3.376684375,0,0
3.376684875,1,0
3.376694667,1,1
3.376699625,1,0
3.376699750,0,0
3.376704750,0,1
3.376709667,0,0
3.376710000,1,0
3.376714792,1,1
3.376719708,1,0
3.376719875,0,0
3.376724833,0,1
3.376729750,0,0
3.376734875,0,1
3.376739833,0,0
3.376740125,1,0
3.376744917,1,1
3.376749875,1,0
3.376750000,0,0
3.376754958,0,1
3.376759917,0,0
3.376760250,1,0
3.376765000,1,1
3.376769958,1,0
3.376770333,0,0
3.376775042,0,1
3.376780000,0,0
3.376790375,0,1
3.376795333,0,0
3.376800417,0,1
3.376805375,0,0
3.376810458,0,1
3.376815417,0,0
3.376820500,0,1
3.376825458,0,0
3.376830583,0,1
3.376835500,0,0
3.376840625,0,1
3.376845542,0,0
3.376850667,0,1
3.376855583,0,0
3.376860708,0,1
3.376865667,0,0
3.376865958,1,0
3.376870750,1,1
3.376875708,1,0
3.376881667,0,0
3.376886333,0,1
3.376892083,1,1
4.382646167,0,1
4.382651250,0,0
4.382656167,1,0
4.382660625,1,1
4.382665583,1,0
4.382670667,1,1
4.382675625,1,0
4.382680708,1,1
4.382685667,1,0
4.382686042,0,0
4.382690750,0,1
4.382695708,0,0
4.382696208,1,0
4.382700792,1,1
4.382705750,1,0
4.382710875,1,1
4.382715792,1,0
4.382716167,0,0
4.382720917,0,1
4.382725833,0,0
4.382730958,0,1
4.382735917,0,0
4.382741000,0,1
4.382745958,0,0
4.382746250,1,0
4.382756250,1,1
4.382761208,1,0
4.382766292,1,1
4.382771250,1,0
4.382776333,1,1
4.382781292,1,0
4.382786417,1,1
4.382791333,1,0
4.382796458,1,1
4.382801375,1,0
4.382801750,0,0
4.382806500,0,1
4.382811417,0,0
4.382811958,1,0
4.382816542,1,1
4.382821500,1,0
4.382821833,0,0
4.382826583,0,1
4.382831542,0,0
4.382836625,0,1
4.382841583,0,0
4.382841917,1,0
4.382846333,0,0
4.382851000,0,1
4.382856792,1,1
4.382876792,0,1
4.382881875,0,0
4.382886792,1,0
4.382891250,1,1
4.382896208,1,0
4.382901292,1,1
4.382906250,1,0
4.382911333,1,1
4.382916292,1,0
4.382916667,0,0
4.382921417,0,1
4.382926333,0,0
4.382926875,1,0
4.382931458,1,1
4.382936375,1,0
4.382941500,1,1
4.382946458,1,0
4.382946792,0,0
4.382951542,0,1
4.382956500,0,0
4.382957000,1,0
4.382961583,1,1
4.382966542,1,0
4.382966667,0,0
4.382971625,0,1
4.382976583,0,0
4.382976917,1,0
4.382985833,1,1
4.382990792,1,0
4.382990917,0,0
4.382995875,0,1
4.383000833,0,0
4.383005917,0,1
4.383010875,0,0
4.383015958,0,1
4.383020917,0,0
4.383026000,0,1
4.383030958,0,0
4.383036083,0,1
4.383041000,0,0
4.383046125,0,1
4.383051042,0,0
4.383056167,0,1
4.383061083,0,0
4.383061417,1,0
4.383061458,0,0
4.383066208,0,1
4.383071167,0,0
4.383071667,1,0
4.383081458,1,1
4.383086417,1,0
4.383086542,0,0
4.383091500,0,1
4.383096458,0,0
4.383096792,1,0
4.383101542,1,1
4.383106500,1,0
4.383106625,0,0
4.383111625,0,1
4.383116542,0,0
4.383121667,0,1
4.383126583,0,0
4.383131708,0,1
4.383136625,0,0
4.383136958,1,0
4.383141750,1,1
4.383146667,1,0
4.383151792,1,1
4.383156750,1,0
4.383157083,0,0
4.383161833,0,1
4.383166792,0,0
4.383167292,1,0
4.383177167,1,1
4.383182083,1,0
4.383187208,1,1
4.383192167,1,0
4.383192292,0,0
4.383197250,0,1
4.383202208,0,0
4.383207292,0,1
4.383212250,0,0
4.383217333,0,1
4.383222292,0,0
4.383227417,0,1
4.383232333,0,0
4.383237458,0,1
4.383242375,0,0
4.383247500,0,1
4.383252417,0,0
4.383252750,1,0
4.383257542,1,1
4.383262458,1,0
4.383268417,0,0
4.383273125,0,1
4.383278875,1,1
4.383861500,0,1
4.383866625,0,0
4.383871500,1,0
4.383876000,1,1
4.383880917,1,0
4.383886042,1,1
4.383890958,1,0
4.383896083,1,1
4.383901000,1,0
4.383901375,0,0
4.383906125,0,1
4.383911083,0,0
4.383911583,1,0
4.383916167,1,1
4.383921125,1,0
4.383926208,1,1
4.383931167,1,0
4.383931542,0,0
4.383936250,0,1
4.383941208,0,0
4.383946333,0,1
4.383951250,0,0
4.383956375,0,1
4.383961292,0,0
4.383961625,1,0
4.383971625,1,1
4.383976542,1,0
4.383981667,1,1
4.383986625,1,0
4.383991708,1,1
4.383996667,1,0
4.384001750,1,1
4.384006708,1,0
4.384007083,0,0
4.384011792,0,1
4.384016750,0,0
4.384017250,1,0
4.384021833,1,1
4.384026792,1,0
4.384031875,1,1
4.384036833,1,0
4.384041958,1,1
4.384046875,1,0
4.384047042,0,0
4.384052000,0,1
4.384056917,0,0
4.384057250,1,0
4.384061708,0,0
4.384066375,0,1
4.384072125,1,1
4.384092167,0,1
4.384097250,0,0
4.384102208,1,0
4.384106667,1,1
4.384111625,1,0
4.384116750,1,1
4.384121667,1,0
4.384126792,1,1
4.384131708,1,0
4.384132083,0,0
4.384136833,0,1
4.384141750,0,0
4.384142292,1,0
4.384146875,1,1
4.384151833,1,0
4.384156917,1,1
4.384161875,1,0
4.384162250,0,0
4.384166958,0,1
4.384171917,0,0
4.384172417,1,0
4.384177000,1,1
4.384181958,1,0
4.384182083,0,0
4.384187042,0,1
4.384192000,0,0
4.384192333,1,0
4.384201167,1,1
4.384206125,1,0
4.384211250,1,1
4.384216167,1,0
4.384221292,1,1
4.384226208,1,0
4.384231333,1,1
4.384236292,1,0
4.384241375,1,1
4.384246333,1,0
4.384251417,1,1
4.384256375,1,0
4.384261458,1,1
4.384266417,1,0
4.384271500,1,1
4.384276458,1,0
4.384276833,0,0
4.384281583,0,1
4.384286500,0,0
4.384287000,1,0
4.384296833,1,1
4.384301750,1,0
4.384306875,1,1
4.384311833,1,0
4.384316917,1,1
4.384321875,1,0
4.384326958,1,1
4.384331917,1,0
4.384337000,1,1
4.384341958,1,0
4.384347042,1,1
4.384352000,1,0
4.384357083,1,1
4.384362042,1,0
4.384367167,1,1
4.384372083,1,0
4.384372458,0,0
4.384377208,0,1
4.384382125,0,0
4.384382667,1,0
4.384392583,1,1
4.384397542,1,0
4.384397667,0,0
4.384402625,0,1
4.384407583,0,0
4.384412667,0,1
4.384417625,0,0
4.384422708,0,1
4.384427667,0,0
4.384432792,0,1
4.384437708,0,0
4.384442833,0,1
4.384447750,0,0
4.384452875,0,1
4.384457792,0,0
4.384462917,0,1
4.384467833,0,0
4.384468167,1,0
4.384472958,1,1
4.384477917,1,0
4.384483875,0,0
4.384488542,0,1
4.384494292,1,1
4.384529375,0,1
4.384534458,0,0
4.384539375,1,0
4.384543833,1,1
4.384548792,1,0
4.384553917,1,1
4.384558833,1,0
4.384563958,1,1
4.384568875,1,0
4.384569250,0,0
4.384574000,0,1
4.384578917,0,0
4.384579458,1,0
4.384584042,1,1
4.384589000,1,0
4.384594083,1,1
4.384599042,1,0
4.384599417,0,0
4.384604125,0,1
4.384609083,0,0
4.384614167,0,1
4.384619125,0,0
4.384624208,0,1
4.384629167,0,0
4.384629500,1,0
4.384639542,1,1
4.384644500,1,0
4.384649583,1,1
4.384654542,1,0
4.384659625,1,1
4.384664583,1,0
4.384669708,1,1
4.384674625,1,0
4.384679750,1,1
4.384684667,1,0
4.384685042,0,0
4.384689792,0,1
4.384694708,0,0
4.384695250,1,0
4.384699833,1,1
4.384704792,1,0
4.384705125,0,0
4.384709875,0,1
4.384714833,0,0
4.384719917,0,1
4.384724875,0,0
4.384725208,1,0
4.384729708,0,0
4.384734375,0,1
4.384740125,1,1
4.384760167,0,1
4.384765250,0,0
4.384770208,1,0
4.384774667,1,1
4.384779625,1,0
4.384784708,1,1
4.384789667,1,0
4.384794750,1,1
4.384799708,1,0
4.384800083,0,0
4.384804833,0,1
4.384809750,0,0
4.384810292,1,0
4.384814875,1,1
4.384819792,1,0
4.384824917,1,1
4.384829875,1,0
4.384830208,0,0
4.384834958,0,1
4.384839917,0,0
4.384840417,1,0
4.384845000,1,1
4.384849958,1,0
4.384850083,0,0
4.384855042,0,1
4.384860000,0,0
4.384860333,1,0
4.384869167,1,1
4.384874125,1,0
4.384874250,0,0
4.384879250,0,1
4.384884167,0,0
4.384889292,0,1
4.384894208,0,0
4.384899333,0,1
4.384904250,0,0
4.384909375,0,1
4.384914292,0,0
4.384919417,0,1
4.384924375,0,0
4.384929458,0,1
4.384934417,0,0
4.384939500,0,1
4.384944458,0,0
4.384949542,0,1
4.384954500,0,0
4.384955000,1,0
4.384964792,1,1
4.384969750,1,0
4.384969917,0,0
4.384974875,0,1
4.384979792,0,0
4.384980125,1,0
4.384984917,1,1
4.384989833,1,0
4.384990000,0,0
4.384994958,0,1
4.384999917,0,0
4.385005000,0,1
4.385009958,0,0
4.385015042,0,1
4.385020000,0,0
4.385020333,1,0
4.385025083,1,1
4.385030042,1,0
4.385035125,1,1
4.385040083,1,0
4.385040458,0,0
4.385045208,0,1
4.385050125,0,0
4.385050667,1,0
4.385060500,1,1
4.385065458,1,0
4.385070542,1,1
4.385075500,1,0
4.385075625,0,0
4.385080625,0,1
4.385085542,0,0
4.385090667,0,1
4.385095583,0,0
4.385100708,0,1
4.385105625,0,0
4.385110750,0,1
4.385115708,0,0
4.385120792,0,1
4.385125750,0,0
4.385130833,0,1
4.385135792,0,0
4.385136125,1,0
4.385140875,1,1
4.385145833,1,0
4.385151792,0,0
4.385156458,0,1
4.385162208,1,1
4.618486042,1,1
